Time [s],Packet ID,MOSI,MISO
2.467432312500000,0,0b  0  0001  0000  1001  1000  0000  0000,0b  1  1111  1111  1111  1111  1111  1111
2.675432312500000,0,0b  0  0001  0000  1001  1000  0000  0000,0b  1  1111  1111  1111  1111  1111  1111
2.675715750000000,1,0b  1  0001  0101  0100  0111  1010  0010,0b  1  1111  1111  1111  1111  1111  1111
9.870446687499999,2,0b  1  0001  0010  0100  1111  1010  0010,0b  1  1111  1111  1111  1111  1111  1111
9.873619625000000,3,0b  1  0001  0010  0100  1111  1010  0010,0b  1  1111  1111  1111  1111  1111  1111
9.877997375000000,4,0b  1  0001  0010  0100  1111  1010  0010,0b  1  1111  1111  1111  1111  1111  1111
11.953938312500000,5,0b  1  0001  0111  1000  0000  0110  0010,0b  1  1111  1111  1111  1111  1111  1111
11.957071875000000,6,0b  1  0001  0111  1000  0000  0110  0010,0b  1  1111  1111  1111  1111  1111  1111
11.961503625000001,7,0b  1  0001  0111  1000  0000  0110  0010,0b  1  1111  1111  1111  1111  1111  1111
13.712155437500000,8,0b  1  0001  0001  1000  1000  0110  0010,0b  1  1111  1111  1111  1111  1111  1111
13.715280125000000,9,0b  1  0001  0001  1000  1000  0110  0010,0b  1  1111  1111  1111  1111  1111  1111
13.719792062500000,10,0b  1  0001  0001  1000  1000  0110  0010,0b  1  1111  1111  1111  1111  1111  1111
15.413142187500000,11,0b  1  0001  0100  1000  0100  0110  0010,0b  1  1111  1111  1111  1111  1111  1111
15.416273812500000,12,0b  1  0001  0100  1000  0100  0110  0010,0b  1  1111  1111  1111  1111  1111  1111
15.420404749999999,13,0b  1  0001  0100  1000  0100  0110  0010,0b  1  1111  1111  1111  1111  1111  1111
17.035225874999998,14,0b  1  0001  0011  0000  1100  0110  0010,0b  1  1111  1111  1111  1111  1111  1111
17.038721312500002,15,0b  1  0001  0011  0000  1100  0110  0010,0b  1  1111  1111  1111  1111  1111  1111
17.042775124999999,16,0b  1  0001  0011  0000  1100  0110  0010,0b  1  1111  1111  1111  1111  1111  1111
18.547485312500001,17,0b  1  0001  0110  0000  0010  0110  0010,0b  1  1111  1111  1111  1111  1111  1111
18.550619125000001,18,0b  1  0001  0110  0000  0010  0110  0010,0b  1  1111  1111  1111  1111  1111  1111
18.555051375000001,19,0b  1  0001  0110  0000  0010  0110  0010,0b  1  1111  1111  1111  1111  1111  1111
20.184260937499999,20,0b  1  0001  0000  0000  1010  0110  0010,0b  1  1111  1111  1111  1111  1111  1111
20.187442250000000,21,0b  1  0001  0000  0000  1010  0110  0010,0b  1  1111  1111  1111  1111  1111  1111
20.190681625000000,22,0b  1  0001  0000  0000  1010  0110  0010,0b  1  1111  1111  1111  1111  1111  1111
23.099413437500001,23,0b  1  0001  0101  1111  1010  0110  0010,0b  1  1111  1111  1111  1111  1111  1111
23.102474999999998,24,0b  1  0001  0101  1111  1010  0110  0010,0b  1  1111  1111  1111  1111  1111  1111
23.107358999999999,25,0b  1  0001  0101  1111  1010  0110  0010,0b  1  1111  1111  1111  1111  1111  1111
25.156136624999998,26,0b  1  0001  0010  1111  0110  0110  0010,0b  1  1111  1111  1111  1111  1111  1111
25.163587562499998,27,0b  1  0001  0010  1111  0110  0110  0010,0b  1  1111  1111  1111  1111  1111  1111
25.166642812500001,28,0b  1  0001  0010  1111  0110  0110  0010,0b  1  1111  1111  1111  1111  1111  1111
26.821947375000001,29,0b  1  0001  0111  0111  1110  0110  0010,0b  1  1111  1111  1111  1111  1111  1111
26.825128187499999,30,0b  1  0001  0111  0111  1110  0110  0010,0b  1  1111  1111  1111  1111  1111  1111
26.829882562500000,31,0b  1  0001  0111  0111  1110  0110  0010,0b  1  1111  1111  1111  1111  1111  1111
28.563083375000001,32,0b  1  0001  0001  0111  0001  0110  0010,0b  1  1111  1111  1111  1111  1111  1111
28.566958875000001,33,0b  1  0001  0001  0111  0001  0110  0010,0b  1  1111  1111  1111  1111  1111  1111
28.570643125000000,34,0b  1  0001  0001  0111  0001  0110  0010,0b  1  1111  1111  1111  1111  1111  1111
30.169811312499998,35,0b  1  0001  0100  0111  1001  0110  0010,0b  1  1111  1111  1111  1111  1111  1111
30.173000625000000,36,0b  1  0001  0100  0111  1001  0110  0010,0b  1  1111  1111  1111  1111  1111  1111
30.177876062500001,37,0b  1  0001  0100  0111  1001  0110  0010,0b  1  1111  1111  1111  1111  1111  1111
31.850016000000000,38,0b  1  0001  0011  1011  0101  0110  0010,0b  1  1111  1111  1111  1111  1111  1111
31.853118562500001,39,0b  1  0001  0011  1011  0101  0110  0010,0b  1  1111  1111  1111  1111  1111  1111
31.857409562499999,40,0b  1  0001  0011  1011  0101  0110  0010,0b  1  1111  1111  1111  1111  1111  1111
33.377541874999999,41,0b  1  0001  0110  1011  1101  0110  0010,0b  1  1111  1111  1111  1111  1111  1111
33.380716249999999,42,0b  1  0001  0110  1011  1101  0110  0010,0b  1  1111  1111  1111  1111  1111  1111
33.384072187500003,43,0b  1  0001  0110  1011  1101  0110  0010,0b  1  1111  1111  1111  1111  1111  1111
35.268505937500002,44,0b  1  0001  0000  1011  0011  0110  0010,0b  1  1111  1111  1111  1111  1111  1111
35.271617312499998,45,0b  1  0001  0000  1011  0011  0110  0010,0b  1  1111  1111  1111  1111  1111  1111
35.276060187500001,46,0b  1  0001  0000  1011  0011  0110  0010,0b  1  1111  1111  1111  1111  1111  1111
36.861537749999997,47,0b  1  0001  0101  0011  1011  0110  0010,0b  1  1111  1111  1111  1111  1111  1111
36.864819875000002,48,0b  1  0001  0101  0011  1011  0110  0010,0b  1  1111  1111  1111  1111  1111  1111
36.869089875000000,49,0b  1  0001  0101  0011  1011  0110  0010,0b  1  1111  1111  1111  1111  1111  1111
38.752183562500001,50,0b  1  0001  0010  0011  0111  0110  0010,0b  1  1111  1111  1111  1111  1111  1111
38.755273500000001,51,0b  1  0001  0010  0011  0111  0110  0010,0b  1  1111  1111  1111  1111  1111  1111
38.759563125000000,52,0b  1  0001  0010  0011  0111  0110  0010,0b  1  1111  1111  1111  1111  1111  1111
40.385184250000002,53,0b  1  0001  0111  1101  1111  0110  0010,0b  1  1111  1111  1111  1111  1111  1111
40.388317937499998,54,0b  1  0001  0111  1101  1111  0110  0010,0b  1  1111  1111  1111  1111  1111  1111
40.392443937499998,55,0b  1  0001  0111  1101  1111  0110  0010,0b  1  1111  1111  1111  1111  1111  1111
42.020941749999999,56,0b  1  0001  0001  1101  0000  1110  0010,0b  1  1111  1111  1111  1111  1111  1111
42.024942875000001,57,0b  1  0001  0001  1101  0000  1110  0010,0b  1  1111  1111  1111  1111  1111  1111
42.028494625000000,58,0b  1  0001  0001  1101  0000  1110  0010,0b  1  1111  1111  1111  1111  1111  1111
43.626538437500002,59,0b  1  0001  0100  1101  1000  1110  0010,0b  1  1111  1111  1111  1111  1111  1111
43.629690875000001,60,0b  1  0001  0100  1101  1000  1110  0010,0b  1  1111  1111  1111  1111  1111  1111
43.634104999999998,61,0b  1  0001  0100  1101  1000  1110  0010,0b  1  1111  1111  1111  1111  1111  1111
45.272875874999997,62,0b  1  0001  0011  0101  0100  1110  0010,0b  1  1111  1111  1111  1111  1111  1111
45.276052437499999,63,0b  1  0001  0011  0101  0100  1110  0010,0b  1  1111  1111  1111  1111  1111  1111
45.280428437499999,64,0b  1  0001  0011  0101  0100  1110  0010,0b  1  1111  1111  1111  1111  1111  1111
46.785606062500001,65,0b  1  0001  0110  0101  1100  1110  0010,0b  1  1111  1111  1111  1111  1111  1111
46.788792312500000,66,0b  1  0001  0110  0101  1100  1110  0010,0b  1  1111  1111  1111  1111  1111  1111
46.793534999999999,67,0b  1  0001  0110  0101  1100  1110  0010,0b  1  1111  1111  1111  1111  1111  1111
48.248773937499998,68,0b  1  0001  0000  0101  0010  1110  0010,0b  1  1111  1111  1111  1111  1111  1111
48.251824562499998,69,0b  1  0001  0000  0101  0010  1110  0010,0b  1  1111  1111  1111  1111  1111  1111
48.256328437500002,70,0b  1  0001  0000  0101  0010  1110  0010,0b  1  1111  1111  1111  1111  1111  1111
50.616400812499997,71,0b  1  0001  0101  1001  1010  1110  0010,0b  1  1111  1111  1111  1111  1111  1111
50.619596937499999,72,0b  1  0001  0101  1001  1010  1110  0010,0b  1  1111  1111  1111  1111  1111  1111
50.624357312500003,73,0b  1  0001  0101  1001  1010  1110  0010,0b  1  1111  1111  1111  1111  1111  1111
52.156297625000001,74,0b  1  0001  0010  1001  0110  1110  0010,0b  1  1111  1111  1111  1111  1111  1111
52.163613249999997,75,0b  1  0001  0010  1001  0110  1110  0010,0b  1  1111  1111  1111  1111  1111  1111
53.760474312500001,76,0b  1  0001  0111  0001  1110  1110  0010,0b  1  1111  1111  1111  1111  1111  1111
53.763523437499998,77,0b  1  0001  0111  0001  1110  1110  0010,0b  1  1111  1111  1111  1111  1111  1111
53.768023624999998,78,0b  1  0001  0111  0001  1110  1110  0010,0b  1  1111  1111  1111  1111  1111  1111
55.350608375000000,79,0b  1  0001  0001  0001  0001  1110  0010,0b  1  1111  1111  1111  1111  1111  1111
55.353688937500003,80,0b  1  0001  0001  0001  0001  1110  0010,0b  1  1111  1111  1111  1111  1111  1111
55.358161750000001,81,0b  1  0001  0001  0001  0001  1110  0010,0b  1  1111  1111  1111  1111  1111  1111
56.863783750000003,82,0b  1  0001  0100  0001  1001  1110  0010,0b  1  1111  1111  1111  1111  1111  1111
56.867382499999998,83,0b  1  0001  0100  0001  1001  1110  0010,0b  1  1111  1111  1111  1111  1111  1111
56.871297499999997,84,0b  1  0001  0100  0001  1001  1110  0010,0b  1  1111  1111  1111  1111  1111  1111
58.539477750000003,85,0b  1  0001  0011  1110  0101  1110  0010,0b  1  1111  1111  1111  1111  1111  1111
58.542606249999999,86,0b  1  0001  0011  1110  0101  1110  0010,0b  1  1111  1111  1111  1111  1111  1111
58.547145000000000,87,0b  1  0001  0011  1110  0101  1110  0010,0b  1  1111  1111  1111  1111  1111  1111
60.227148000000000,88,0b  1  0001  0110  1110  1101  1110  0010,0b  1  1111  1111  1111  1111  1111  1111
60.230225750000002,89,0b  1  0001  0110  1110  1101  1110  0010,0b  1  1111  1111  1111  1111  1111  1111
60.235051312499998,90,0b  1  0001  0110  1110  1101  1110  0010,0b  1  1111  1111  1111  1111  1111  1111
61.682872187500003,91,0b  1  0001  0101  0100  0111  1010  0010,0b  1  1111  1111  1111  1111  1111  1111
61.685922187499997,92,0b  1  0001  0101  0100  0111  1010  0010,0b  1  1111  1111  1111  1111  1111  1111
61.690394812500003,93,0b  1  0001  0101  0100  0111  1010  0010,0b  1  1111  1111  1111  1111  1111  1111
